"Freq [GHz]","dB(S(1,1)) []"
2,-17.6100938509546,-0.0897776350686092
2.00066666666667,-17.655464181681,-0.0898595040658379
2.00133333333333,-17.7010176319917,-0.0899417834272674
2.002,-17.7467540188259,-0.0900244706128672
2.00266666666667,-17.7926731149616,-0.0901075630949284
2.00333333333333,-17.8387746471185,-0.0901910583580741
2.004,-17.8850582939945,-0.0902749538993074
2.00466666666667,-17.9315236842305,-0.0903592472280246
2.00533333333333,-17.9781703943034,-0.0904439358660533
2.006,-18.0249979463447,-0.0905290173476807
2.00666666666667,-18.0720058058818,-0.0906144892196817
2.00733333333333,-18.1191933794995,-0.0907003490413432
2.008,-18.1665600124216,-0.0907865943845044
2.00866666666667,-18.2141049860064,-0.0908732228335739
2.00933333333333,-18.2618275151574,-0.0909602319855672
2.01,-18.3097267456443,-0.0910476194501375
2.01066666666667,-18.3578017513329,-0.0911353828495862
2.01133333333333,-18.4060515313208,-0.0912235198189282
2.012,-18.4544750069773,-0.0913120280058854
2.01266666666667,-18.5030710188838,-0.0914009050709366
2.01333333333333,-18.5518383236724,-0.0914901486873426
2.014,-18.6007755907616,-0.0915797565411693
2.01466666666667,-18.6498813989837,-0.0916697263313348
2.01533333333333,-18.6991542331045,-0.0917600557696156
2.016,-18.7485924802301,-0.0918507425806954
2.01666666666667,-18.7981944261001,-0.0919417845021828
2.01733333333333,-18.8479582512639,-0.0920331792846535
2.018,-18.8978820271377,-0.0921249246916692
2.01866666666667,-18.9479637119405,-0.0922170184998069
2.01933333333333,-18.9982011465051,-0.0923094584986981
2.02,-19.0485920499651,-0.0924022424910588
2.02066666666667,-19.0991340153114,-0.0924953682927058
2.02133333333333,-19.1498245048206,-0.0925888337326022
2.022,-19.2006608453507,-0.092682636652883
2.02266666666667,-19.2516402235027,-0.0927767749088779
2.02333333333333,-19.302759680648,-0.0928712463691535
2.024,-19.3540161078191,-0.0929660489155354
2.02466666666667,-19.4054062404621,-0.0930611804431382
2.02533333333333,-19.456926653052,-0.0931566388604086
2.026,-19.5085737535684,-0.0932524220891379
2.02666666666667,-19.5603437778322,-0.0933485280645057
2.02733333333333,-19.6122327837034,-0.0934449547350985
2.028,-19.6642366451403,-0.0935417000629616
2.02866666666667,-19.7163510461214,-0.0936387620236013
2.02933333333333,-19.7685714744301,-0.0937361386060443
2.03,-19.8208932153065,-0.0938338278128418
2.03066666666667,-19.8733113449653,-0.0939318276601189
2.03133333333333,-19.9258207239862,-0.0940301361776063
2.032,-19.9784159905781,-0.0941287514086594
2.03266666666667,-20.0310915537221,-0.0942276714102882
2.03333333333333,-20.0838415861982,-0.0943268942532121
2.034,-20.1366600175022,-0.0944264180218591
2.03466666666667,-20.1895405266585,-0.0945262408144205
2.03533333333333,-20.2424765349365,-0.0946263607428675
2.036,-20.2954611984804,-0.0947267759330002
2.03666666666667,-20.34848740086,-0.0948274845244555
2.03733333333333,-20.4015477455551,-0.0949284846707551
2.038,-20.4546345483845,-0.0950297745393378
2.03866666666667,-20.5077398298924,-0.0951313523115773
2.03933333333333,-20.5608553077077,-0.0952332161828329
2.04,-20.6139723888918,-0.0953353643624619
2.04066666666667,-20.6670821622913,-0.095437795073862
2.04133333333333,-20.7201753909164,-0.0955405065545027
2.042,-20.7732425043636,-0.0956434970559608
2.04266666666667,-20.8262735913065,-0.0957467648439337
2.04333333333333,-20.8792583920781,-0.0958503081983011
2.044,-20.9321862913706,-0.0959541254131283
2.04466666666667,-20.9850463110806,-0.0960582147967171
2.04533333333333,-21.0378271033295,-0.0961625746716304
2.046,-21.090516943691,-0.096267203374723
2.04666666666667,-21.14310372466,-0.0963720992571798
2.04733333333333,-21.1955749493979,-0.0964772606845435
2.048,-21.2479177257947,-0.0965826860367461
2.04866666666667,-21.3001187608857,-0.0966883737081475
2.04933333333333,-21.3521643556684,-0.0967943221075562
2.05,-21.4040404003618,-0.0969005296582776
2.05066666666667,-21.4557323701578,-0.0970069947981356
2.05133333333333,-21.5072253215119,-0.0971137159795037
2.052,-21.5585038890265,-0.097220691669345
2.05266666666667,-21.6095522829789,-0.097327920349246
2.05333333333333,-21.6603542875505,-0.0974354005154346
2.054,-21.7108932598142,-0.0975431306788343
2.05466666666667,-21.7611521295388,-0.0976511093650839
2.05533333333333,-21.8111133998718,-0.0977593351145646
2.056,-21.8607591489618,-0.097867806482451
2.05666666666667,-21.9100710325837,-0.0979765220387314
2.05733333333333,-21.9590302878308,-0.0980854803682422
2.058,-22.0076177379379,-0.0981946800707046
2.05866666666667,-22.0558137983001,-0.0983041197607573
2.05933333333333,-22.1035984837509,-0.0984137980679845
2.06,-22.150951417165,-0.0985237136369552
2.06066666666667,-22.1978518394454,-0.0986338651272613
2.06133333333333,-22.2442786209588,-0.0987442512135322
2.062,-22.2902102744752,-0.0988548705854925
2.06266666666667,-22.3356249696698,-0.0989657219479741
2.06333333333333,-22.3805005492383,-0.0990768040209675
2.064,-22.4248145466746,-0.0991881155396421
2.06466666666667,-22.4685442057542,-0.0992996552543932
2.06533333333333,-22.5116665017628,-0.0994114219308552
2.066,-22.5541581644999,-0.0995234143499608
2.06666666666667,-22.595995703085,-0.099635631307955
2.06733333333333,-22.6371554325821,-0.0997480716164405
2.068,-22.6776135024523,-0.0998607341024074
2.06866666666667,-22.7173459268329,-0.0999736176082646
2.06933333333333,-22.7563286166352,-0.100086720991885
2.07,-22.7945374134373,-0.100200043126621
2.07066666666667,-22.8319481251414,-0.100313582901356
2.07133333333333,-22.8685365633499,-0.100427339220538
2.072,-22.9042785824048,-0.100541311004195
2.07266666666667,-22.9391501200196,-0.100655497187997
2.07333333333333,-22.9731272394201,-0.100769896723265
2.074,-23.0061861728976,-0.100884508577025
2.07466666666667,-23.0383033666635,-0.100999331732031
2.07533333333333,-23.069455526879,-0.101114365186807
2.076,-23.099619666723,-0.101229607955675
2.07666666666667,-23.1287731543437,-0.101345059068793
2.07733333333333,-23.1568937615286,-0.101460717572192
2.078,-23.183959712915,-0.101576582527808
2.07866666666667,-23.2099497355487,-0.101692653013522
2.07933333333333,-23.2348431085908,-0.101808928123181
2.08,-23.2586197129582,-0.101925406966653
2.08066666666667,-23.2812600806802,-0.10204208866985
2.08133333333333,-23.3027454437393,-0.102158972374763
2.082,-23.3230577821646,-0.102276057239498
2.08266666666667,-23.3421798711379,-0.102393342438324
2.08333333333333,-23.3600953268713,-0.102510827161688
2.084,-23.376788651016,-0.102628510616258
2.08466666666667,-23.3922452733608,-0.102746392024971
2.08533333333333,-23.4064515925848,-0.102864470627053
2.086,-23.4193950148333,-0.102982745678057
2.08666666666667,-23.4310639898937,-0.103101216449905
2.08733333333333,-23.4414480447589,-0.103219882230922
2.088,-23.4505378143776,-0.10333874232587
2.08866666666667,-23.4583250694037,-0.10345779605598
2.08933333333333,-23.4648027407753,-0.103577042758995
2.09,-23.4699649409698,-0.103696481789206
2.09066666666667,-23.4738069818006,-0.103816112517476
2.09133333333333,-23.476325388645,-0.103935934331304
2.092,-23.477517911009,-0.104055946634822
2.09266666666667,-23.4773835293653,-0.104176148848863
2.09333333333333,-23.4759224582166,-0.104296540410988
2.094,-23.4731361453673,-0.104417120775506
2.09466666666667,-23.4690272674074,-0.104537889413549
2.09533333333333,-23.4635997214362,-0.104658845813061
2.096,-23.4568586130822,-0.104779989478871
2.09666666666667,-23.4488102408926,-0.104901319932717
2.09733333333333,-23.4394620771939,-0.105022836713274
2.098,-23.4288227455436,-0.105144539376211
2.09866666666667,-23.4169019949145,-0.105266427494201
2.09933333333333,-23.403710670772,-0.105388500656987
2.1,-23.3892606832199,-0.105510758471395
2.10066666666667,-23.37356497241,-0.105633200561384
2.10133333333333,-23.3566374714179,-0.105755826568078
2.102,-23.3384930668042,-0.105878636149811
2.10266666666667,-23.3191475570872,-0.106001628982144
2.10333333333333,-23.2986176093584,-0.106124804757933
2.104,-23.2769207142811,-0.106248163187335
2.10466666666667,-23.2540751397122,-0.106371703997866
2.10533333333333,-23.2300998831878,-0.106495426934431
2.106,-23.2050146235142,-0.106619331759359
2.10666666666667,-23.1788396717013,-0.106743418252451
2.10733333333333,-23.1515959214698,-0.106867686211003
2.108,-23.1233047995587,-0.106992135449853
2.10866666666667,-23.09398821605,-0.10711676580142
2.10933333333333,-23.0636685149202,-0.107241577115728
2.11,-23.0323684250145,-0.107366569260464
2.11066666666667,-23.0001110116312,-0.107491742121007
2.11133333333333,-22.9669196288899,-0.107617095600451
2.112,-22.9328178730444,-0.10774262961967
2.11266666666667,-22.8978295368871,-0.107868344117337
2.11333333333333,-22.8619785653801,-0.107994239049969
2.114,-22.8252890126302,-0.108120314391959
2.11466666666667,-22.7877850003165,-0.108246570135624
2.11533333333333,-22.7494906776598,-0.108373006291233
2.116,-22.7104301830138,-0.108499622887059
2.11666666666667,-22.6706276071414,-0.108626419969392
2.11733333333333,-22.6301069582298,-0.108753397602615
2.118,-22.588892128683,-0.108880555869201
2.11866666666667,-22.5470068637198,-0.109007894869785
2.11933333333333,-22.5044747317939,-0.109135414723184
2.12,-22.4613190968432,-0.109263115566438
2.12066666666667,-22.4175630923643,-0.109390997554856
2.12133333333333,-22.3732295972998,-0.109519060862054
2.122,-22.3283412137191,-0.109647305679975
2.12266666666667,-22.2829202462631,-0.109775732218957
2.12333333333333,-22.2369886833198,-0.109904340707752
2.124,-22.1905681798895,-0.110033131393565
2.12466666666667,-22.1436800420944,-0.11016210454211
2.12533333333333,-22.0963452132821,-0.110291260437623
2.126,-22.0485842616696,-0.110420599382926
2.12666666666667,-22.0004173694706,-0.110550121699453
2.12733333333333,-21.951864323446,-0.110679827727288
2.128,-21.9029445068172,-0.110809717825208
2.12866666666667,-21.853676892478,-0.110939792370728
2.12933333333333,-21.8040800374421,-0.111070051760123
2.13,-21.7541720784612,-0.111200496408487
2.13066666666667,-21.7039707287497,-0.111331126749762
2.13133333333333,-21.6534932757512,-0.111461943236779
2.132,-21.6027565798839,-0.111592946341297
2.13266666666667,-21.5517770742019,-0.111724136554047
2.13333333333333,-21.5005707649109,-0.111855514384757
2.134,-21.4491532326785,-0.111987080362217
2.13466666666667,-21.3975396346803,-0.112118835034292
2.13533333333333,-21.3457447073257,-0.112250778967985
2.136,-21.2937827696073,-0.112382912749455
2.13666666666667,-21.2416677270238,-0.112515236984072
2.13733333333333,-21.1894130760221,-0.112647752296456
2.138,-21.1370319089131,-0.112780459330508
2.13866666666667,-21.0845369192138,-0.112913358749457
2.13933333333333,-21.0319404073705,-0.113046451235899
2.14,-20.9792542868234,-0.113179737491831
2.14066666666667,-20.9264900903714,-0.113313218238708
2.14133333333333,-20.8736589767994,-0.11344689421746
2.142,-20.8207717377344,-0.113580766188548
2.14266666666667,-20.7678388046955,-0.113714834932002
2.14333333333333,-20.7148702563078,-0.113849101247455
2.144,-20.6618758256508,-0.113983565954192
2.14466666666667,-20.6088649077137,-0.114118229891181
2.14533333333333,-20.5558465669338,-0.114253093917122
2.146,-20.5028295447925,-0.11438815891048
2.14666666666667,-20.4498222674497,-0.114523425769532
2.14733333333333,-20.3968328533946,-0.114658895412409
2.148,-20.3438691210953,-0.114794568777119
2.14866666666667,-20.2909385966312,-0.114930446821614
2.14933333333333,-20.238048521291,-0.115066530523814
2.15,-20.185205859125,-0.115202820881643
2.15066666666667,-20.1324173044354,-0.115339318913089
2.15133333333333,-20.079689289197,-0.115476025656228
2.152,-20.0270279903951,-0.11561294216927
2.15266666666667,-19.9744393372729,-0.115750069530601
2.15333333333333,-19.9219290184794,-0.115887408838828
2.154,-19.8695024891121,-0.116024961212802
2.15466666666667,-19.8171649776449,-0.116162727791688
2.15533333333333,-19.7649214927401,-0.116300709734979
2.156,-19.7127768299363,-0.116438908222549
2.15666666666667,-19.6607355782092,-0.116577324454697
2.15733333333333,-19.6088021264027,-0.116715959652181
2.158,-19.556980669527,-0.116854815056262
2.15866666666667,-19.5052752149207,-0.116993891928745
2.15933333333333,-19.4536895882773,-0.117133191552025
2.16,-19.4022274395324,-0.117272715229113
2.16066666666667,-19.3508922486135,-0.117412464283701
2.16133333333333,-19.2996873310491,-0.11755244006018
2.162,-19.2486158434408,-0.117692643923696
2.16266666666667,-19.1976807887947,-0.117833077260186
2.16333333333333,-19.1468850217161,-0.117973741476422
2.164,-19.0962312534665,-0.11811463800004
2.16466666666667,-19.0457220568852,-0.118255768279606
2.16533333333333,-18.9953598711754,-0.118397133784636
2.166,-18.9451470065588,-0.118538736005646
2.16666666666667,-18.8950856487975,-0.11868057645419
2.16733333333333,-18.8451778635872,-0.118822656662907
2.168,-18.7954256008237,-0.118964978185555
2.16866666666667,-18.7458306987431,-0.119107542597067
2.16933333333333,-18.6963948879401,-0.119250351493566
2.17,-18.6471197952649,-0.119393406492436
2.17066666666667,-18.5980069476027,-0.11953670923235
2.17133333333333,-18.5490577755364,-0.119680261373301
2.172,-18.5002736168974,-0.119824064596667
2.17266666666667,-18.4516557202041,-0.119968120605239
2.17333333333333,-18.4032052479935,-0.120112431123257
2.174,-18.3549232800463,-0.12025699789647
2.17466666666667,-18.306810816509,-0.120401822692151
2.17533333333333,-18.2588687809162,-0.120546907299175
2.176,-18.211098023114,-0.120692253528023
2.17666666666667,-18.1634993220881,-0.12083786321085
2.17733333333333,-18.1160733886997,-0.120983738201514
2.178,-18.0688208683305,-0.12112988037563
2.17866666666667,-18.0217423434393,-0.121276291630588
2.17933333333333,-17.9748383360343,-0.121422973885633
2.18,-17.9281093100612,-0.121569929081855
2.18066666666667,-17.8815556737117,-0.12171715918229
2.18133333333333,-17.835177781652,-0.121864666171918
2.182,-17.7889759371779,-0.122012452057713
2.18266666666667,-17.7429503942932,-0.122160518868704
2.18333333333333,-17.6971013597187,-0.122308868655998
2.184,-17.6514289948306,-0.122457503492828
2.18466666666667,-17.6059334175324,-0.122606425474595
2.18533333333333,-17.5606147040613,-0.12275563671891
2.186,-17.515472890731,-0.122905139365632
2.18666666666667,-17.470507975614,-0.123054935576926
2.18733333333333,-17.4257199201645,-0.123205027537279
2.188,-17.3811086507837,-0.123355417453559
2.18866666666667,-17.3366740603298,-0.123506107555064
2.18933333333333,-17.292416009574,-0.123657100093536
2.19,-17.2483343286049,-0.123808397343236
2.19066666666667,-17.2044288181822,-0.123960001600964
2.19133333333333,-17.1606992510423,-0.124111915186104
2.192,-17.1171453731562,-0.12426414044068
2.19266666666667,-17.0737669049423,-0.12441667972938
2.19333333333333,-17.0305635424355,-0.124569535439606
2.194,-16.9875349584131,-0.124722709981514
2.19466666666667,-16.9446808034802,-0.124876205788064
2.19533333333333,-16.9020007071152,-0.125030025315049
2.196,-16.8594942786772,-0.125184171041148
2.19666666666667,-16.8171611083758,-0.125338645467957
2.19733333333333,-16.7750007682057,-0.125493451120047
2.198,-16.7330128128464,-0.125648590544988
2.19866666666667,-16.6911967805289,-0.125804066313398
2.19933333333333,-16.6495521938695,-0.125959881019
2.2,-16.6080785606734,-0.126116037278626
2.20066666666667,-16.5667753747074,-0.126272537732308
2.20133333333333,-16.525642116444,-0.126429385043275
2.202,-16.4846782537778,-0.126586581898027
2.20266666666667,-16.4438832427141,-0.126744131006366
2.20333333333333,-16.4032565280324,-0.126902035101415
2.204,-16.3627975439238,-0.127060296939709
2.20466666666667,-16.3225057146048,-0.127218919301187
2.20533333333333,-16.2823804549074,-0.12737790498927
2.206,-16.2424211708465,-0.127537256830881
2.20666666666667,-16.2026272601659,-0.1276969776765
2.20733333333333,-16.1629981128627,-0.127857070400187
2.208,-16.1235331116921,-0.12801753789965
2.20866666666667,-16.0842316326515,-0.128178383096262
2.20933333333333,-16.0450930454474,-0.128339608935126
2.21,-16.0061167139424,-0.128501218385098
2.21066666666667,-15.9673019965859,-0.128663214438831
2.21133333333333,-15.9286482468269,-0.12882560011282
2.212,-15.8901548135114,-0.128988378447452
2.21266666666667,-15.8518210412632,-0.129151552507031
2.21333333333333,-15.8136462708502,-0.129315125379838
2.214,-15.7756298395358,-0.129479100178151
2.21466666666667,-15.7377710814157,-0.129643480038301
2.21533333333333,-15.7000693277423,-0.129808268120713
2.216,-15.6625239072345,-0.129973467609938
2.21666666666667,-15.6251341463763,-0.130139081714712
2.21733333333333,-15.587899369702,-0.130305113667971
2.218,-15.5508189000704,-0.130471566726914
2.21866666666667,-15.5138920589276,-0.130638444173041
2.21933333333333,-15.4771181665583,-0.130805749312182
2.22,-15.4404965423277,-0.130973485474552
2.22066666666667,-15.404026504912,-0.131141656014784
2.22133333333333,-15.36770737252,-0.131310264311968
2.222,-15.3315384631051,-0.131479313769704
2.22266666666667,-15.295519094568,-0.131648807816129
2.22333333333333,-15.2596485849508,-0.131818749903966
2.224,-15.2239262526229,-0.13198914351056
2.22466666666667,-15.1883514164585,-0.132159992137927
2.22533333333333,-15.1529233960062,-0.132331299312773
2.226,-15.1176415116515,-0.132503068586575
2.22666666666667,-15.0825050847718,-0.132675303535575
2.22733333333333,-15.0475134378842,-0.132848007760854
2.228,-15.0126658947869,-0.13302118488836
2.22866666666667,-14.9779617806941,-0.133194838568942
2.22933333333333,-14.9434004223644,-0.133368972478403
2.23,-14.9089811482235,-0.133543590317535
2.23066666666667,-14.8747032884809,-0.133718695812155
2.23133333333333,-14.8405661752409,-0.133894292713155
2.232,-14.806569142609,-0.134070384796528
2.23266666666667,-14.7727115267919,-0.134246975863422
2.23333333333333,-14.7389926661933,-0.134424069740171
2.234,-14.7054119015054,-0.13460167027834
2.23466666666667,-14.6719685757942,-0.134779781354762
2.23533333333333,-14.6386620345822,-0.134958406871571
2.236,-14.6054916259255,-0.135137550756255
2.23666666666667,-14.5724567004874,-0.135317216961692
2.23733333333333,-14.5395566116078,-0.13549740946618
2.238,-14.5067907153691,-0.13567813227349
2.23866666666667,-14.474158370658,-0.135859389412892
2.23933333333333,-14.441658939224,-0.136041184939202
2.24,-14.4092917857347,-0.136223522932813
2.24066666666667,-14.3770562778275,-0.136406407499755
2.24133333333333,-14.3449517861583,-0.136589842771711
2.242,-14.3129776844472,-0.136773832906064
2.24266666666667,-14.2811333495215,-0.136958382085939
2.24333333333333,-14.2494181613552,-0.137143494520228
2.244,-14.2178315031067,-0.137329174443656
2.24466666666667,-14.1863727611535,-0.137515426116793
2.24533333333333,-14.1550413251243,-0.137702253826105
2.246,-14.123836587929,-0.13788966188398
2.24666666666667,-14.092757945786,-0.138077654628791
2.24733333333333,-14.0618047982479,-0.138266236424909
2.248,-14.0309765482246,-0.138455411662749
2.24866666666667,-14.0002726020046,-0.138645184758817
2.24933333333333,-13.9696923692741,-0.13883556015574
2.25,-13.9392352631345,-0.13902654232229
2.25066666666667,-13.9089007001181,-0.139218135753449
2.25133333333333,-13.8786881002015,-0.139410344970429
2.252,-13.8485968868187,-0.139603174520714
2.25266666666667,-13.8186264868708,-0.139796628978094
2.25333333333333,-13.7887763307355,-0.139990712942704
2.254,-13.7590458522749,-0.140185431041069
2.25466666666667,-13.7294344888411,-0.140380787926118
2.25533333333333,-13.699941681282,-0.140576788277248
2.256,-13.6705668739438,-0.140773436800348
2.25666666666667,-13.6413095146744,-0.140970738227829
2.25733333333333,-13.6121690548238,-0.14116869731867
2.258,-13.5831449492442,-0.141367318858458
2.25866666666667,-13.5542366562895,-0.141566607659407
